T2058 000:003.391   SEGGER J-Link V7.82 Log File
T2058 000:003.460   DLL Compiled: Oct 13 2022 13:32:51
T2058 000:003.463   Logging started @ 2023-11-17 01:53
T2058 000:003.465 - 3.466ms
T2058 000:003.469 JLINK_SetWarnOutHandler(...)
T2058 000:003.473 - 0.004ms
T2058 000:003.476 JLINK_OpenEx(...)
T2058 000:004.541   Firmware: J-Link OB-nRF5340-NordicSemi compiled Dec  3 2021 15:46:49
T2058 000:004.831   Firmware: J-Link OB-nRF5340-NordicSemi compiled Dec  3 2021 15:46:49
T2058 000:035.625   Hardware: V1.00
T2058 000:035.641   S/N: 1050077488
T2058 000:035.649   OEM: SEGGER
T2058 000:035.656   Feature(s): None
T2058 000:036.690   TELNET listener socket opened on port 19021
T2058 000:036.762   WEBSRV WEBSRV_Init(): Starting webserver thread(s)
T2058 000:036.872   WEBSRV Webserver running on local port 19080
T2058 000:040.820 - 37.353ms returns "O.K."
T2058 000:040.842 JLINK_GetEmuCaps()
T2058 000:040.855 - 0.015ms returns 0xB8EA5A33
T2058 000:040.862 JLINK_TIF_GetAvailable(...)
T2058 000:040.996 - 0.136ms
T2058 000:041.004 JLINK_SetErrorOutHandler(...)
T2058 000:041.007 - 0.005ms
T2058 000:041.021 JLINK_ExecCommand("ProjectFile = "E:\CODE\GitHub\ARM\Target\projects\JLinkSettings.ini"", ...). 
T2058 000:048.455 - 7.440ms returns 0x00
T2058 000:048.487 JLINK_ExecCommand("Device = nRF5340_xxAA:Application", ...). 
T2058 000:048.789   Device "NRF5340_XXAA_APP" selected.
T2058 000:048.923 - 0.434ms returns 0x00
T2058 000:048.929 JLINK_ExecCommand("DisableConnectionTimeout", ...). 
T2058 000:048.934 - 0.002ms returns 0x01
T2058 000:048.937 JLINK_GetHardwareVersion()
T2058 000:048.940 - 0.003ms returns 10000
T2058 000:048.944 JLINK_GetDLLVersion()
T2058 000:048.946 - 0.003ms returns 78200
T2058 000:048.949 JLINK_GetOEMString(...)
T2058 000:048.952 JLINK_GetFirmwareString(...)
T2058 000:048.955 - 0.003ms
T2058 000:048.967 JLINK_GetDLLVersion()
T2058 000:048.969 - 0.003ms returns 78200
T2058 000:048.972 JLINK_GetCompileDateTime()
T2058 000:048.974 - 0.003ms
T2058 000:048.980 JLINK_GetFirmwareString(...)
T2058 000:048.982 - 0.003ms
T2058 000:048.988 JLINK_GetHardwareVersion()
T2058 000:048.990 - 0.003ms returns 10000
T2058 000:048.995 JLINK_GetSN()
T2058 000:048.998 - 0.003ms returns 1050077488
T2058 000:049.002 JLINK_GetOEMString(...)
T2058 000:049.007 JLINK_TIF_Select(JLINKARM_TIF_SWD)
T2058 000:049.441 - 0.440ms returns 0x00
T2058 000:049.451 JLINK_HasError()
T2058 000:049.458 JLINK_SetSpeed(5000)
T2058 000:049.508 - 0.050ms
T2058 000:049.513 JLINK_GetId()
T2058 000:049.629   ConfigTargetSettings() start
T2058 000:049.634    J-Link Script File: Executing ConfigTargetSettings()
T2058 000:049.645   ConfigTargetSettings() end
T2058 000:049.651   InitTarget() start
T2058 000:049.655    J-Link Script File: Executing InitTarget()
T2058 000:050.766   InitTarget() end
T2058 000:051.253   Found SW-DP with ID 0x6BA02477
T2058 000:053.180   DPIDR: 0x6BA02477
T2058 000:053.185   CoreSight SoC-400 or earlier
T2058 000:053.191   AP map detection skipped. Manually configured AP map found.
T2058 000:053.197   AP[0]: AHB-AP (IDR: Not set)
T2058 000:053.202   AP[1]: AHB-AP (IDR: Not set)
T2058 000:053.207   AP[2]: MEM-AP (IDR: Not set)
T2058 000:053.212   AP[3]: MEM-AP (IDR: Not set)
T2058 000:053.990   AP[0]: Core found
T2058 000:053.996   AP[0]: AHB-AP ROM base: 0xE00FE000
T2058 000:054.461   CPUID register: 0x410FD214. Implementer code: 0x41 (ARM)
T2058 000:054.467   Feature set: Mainline
T2058 000:054.473   Found Cortex-M33 r0p4, Little endian.
T2058 000:054.678   -- Max. mem block: 0x0003C628
T2058 000:054.922   CPU_ReadMem(4 bytes @ 0xE000EDF0)
T2058 000:055.205   CPU_WriteMem(4 bytes @ 0xE000EDF0)
T2058 000:055.478   CPU_ReadMem(4 bytes @ 0xE0002000)
T2058 000:055.759   FPUnit: 8 code (BP) slots and 0 literal slots
T2058 000:055.763   CPU_ReadMem(4 bytes @ 0xE000EDFC)
T2058 000:056.095   CPU_WriteMem(4 bytes @ 0xE000EDFC)
T2058 000:056.374   CPU_ReadMem(4 bytes @ 0xE0001000)
T2058 000:056.652   CPU_ReadMem(4 bytes @ 0xE0001000)
T2058 000:056.926   CPU_ReadMem(4 bytes @ 0xE0001028)
T2058 000:057.230   CPU_ReadMem(4 bytes @ 0xE0001038)
T2058 000:057.503   CPU_ReadMem(4 bytes @ 0xE0001048)
T2058 000:057.786   CPU_ReadMem(4 bytes @ 0xE0001058)
T2058 000:058.095   CPU_WriteMem(4 bytes @ 0xE0001000)
T2058 000:058.384   CPU_ReadMem(4 bytes @ 0xE000ED88)
T2058 000:058.673   CPU_WriteMem(4 bytes @ 0xE000ED88)
T2058 000:058.951   CPU_ReadMem(4 bytes @ 0xE000ED88)
T2058 000:059.230   CPU_WriteMem(4 bytes @ 0xE000ED88)
T2058 000:059.508   CPU_ReadMem(4 bytes @ 0xE000EFB8)
T2058 000:059.812   Security extension: implemented
T2058 000:059.818   Secure debug: enabled
T2058 000:059.824   CoreSight components:
T2058 000:059.831   ROMTbl[0] @ E00FE000
T2058 000:059.834   CPU_ReadMem(64 bytes @ 0xE00FE000)
T2058 000:060.582   CPU_ReadMem(32 bytes @ 0xE00FFFE0)
T2058 000:061.121   [0][0]: E00FF000 CID B105100D PID 000BB4C9 ROM Table
T2058 000:061.127   ROMTbl[1] @ E00FF000
T2058 000:061.131   CPU_ReadMem(64 bytes @ 0xE00FF000)
T2058 000:061.872   CPU_ReadMem(32 bytes @ 0xE000EFE0)
T2058 000:062.356   CPU_ReadMem(4 bytes @ 0xE000EFBC)
T2058 000:062.638   CPU_ReadMem(4 bytes @ 0xE000EFCC)
T2058 000:062.904   [1][0]: E000E000 CID B105900D PID 000BBD21 DEVARCH 47702A04 DEVTYPE 00 Cortex-M33
T2058 000:062.908   CPU_ReadMem(32 bytes @ 0xE0001FE0)
T2058 000:063.379   CPU_ReadMem(4 bytes @ 0xE0001FBC)
T2058 000:063.662   CPU_ReadMem(4 bytes @ 0xE0001FCC)
T2058 000:063.939   [1][1]: E0001000 CID B105900D PID 000BBD21 DEVARCH 47701A02 DEVTYPE 00 DWT
T2058 000:063.944   CPU_ReadMem(32 bytes @ 0xE0002FE0)
T2058 000:064.432   CPU_ReadMem(4 bytes @ 0xE0002FBC)
T2058 000:064.710   CPU_ReadMem(4 bytes @ 0xE0002FCC)
T2058 000:064.998   [1][2]: E0002000 CID B105900D PID 000BBD21 DEVARCH 47701A03 DEVTYPE 00 FPB
T2058 000:065.002   CPU_ReadMem(32 bytes @ 0xE0000FE0)
T2058 000:065.538   CPU_ReadMem(4 bytes @ 0xE0000FBC)
T2058 000:065.817   CPU_ReadMem(4 bytes @ 0xE0000FCC)
T2058 000:066.100   [1][3]: E0000000 CID B105900D PID 000BBD21 DEVARCH 47701A01 DEVTYPE 43 ITM
T2058 000:066.105   CPU_ReadMem(32 bytes @ 0xE0041FE0)
T2058 000:066.580   CPU_ReadMem(4 bytes @ 0xE0041FBC)
T2058 000:066.864   CPU_ReadMem(4 bytes @ 0xE0041FCC)
T2058 000:067.157   [1][5]: E0041000 CID B105900D PID 002BBD21 DEVARCH 47724A13 DEVTYPE 13 ETM
T2058 000:067.162   CPU_ReadMem(32 bytes @ 0xE0042FE0)
T2058 000:067.643   CPU_ReadMem(4 bytes @ 0xE0042FBC)
T2058 000:067.921   CPU_ReadMem(4 bytes @ 0xE0042FCC)
T2058 000:068.210   [1][6]: E0042000 CID B105900D PID 000BBD21 DEVARCH 47701A14 DEVTYPE 14 CSS600-CTI
T2058 000:068.215   CPU_ReadMem(32 bytes @ 0xE0040FE0)
T2058 000:068.700   CPU_ReadMem(4 bytes @ 0xE0040FBC)
T2058 000:068.984   CPU_ReadMem(4 bytes @ 0xE0040FCC)
T2058 000:069.331   [0][1]: E0040000 CID B105900D PID 000BBD21 DEVARCH 00000000 DEVTYPE 11 TPIU
T2058 000:069.524 - 20.015ms returns 0x6BA02477
T2058 000:069.533 JLINK_GetDLLVersion()
T2058 000:069.538 - 0.007ms returns 78200
T2058 000:069.544 JLINK_CORE_GetFound()
T2058 000:069.548 - 0.006ms returns 0xE0200FF
T2058 000:069.553 JLINK_GetDebugInfo(0x100 = JLINKARM_ROM_TABLE_ADDR_INDEX)
T2058 000:069.560   Value=0xE00FE000
T2058 000:069.566 - 0.014ms returns 0
T2058 000:069.592 JLINK_GetDebugInfo(0x100 = JLINKARM_ROM_TABLE_ADDR_INDEX)
T2058 000:069.596   Value=0xE00FE000
T2058 000:069.602 - 0.012ms returns 0
T2058 000:069.607 JLINK_GetDebugInfo(0x101 = JLINKARM_DEBUG_INFO_ETM_ADDR_INDEX)
T2058 000:069.611   Value=0xE0041000
T2058 000:069.617 - 0.012ms returns 0
T2058 000:069.624 JLINK_ReadMemEx(0xE0041FD0, 0x20 Bytes, Flags = 0x02000004)
T2058 000:069.639   CPU_ReadMem(32 bytes @ 0xE0041FD0)
T2058 000:070.126   Data:  04 00 00 00 00 00 00 00 00 00 00 00 00 00 00 00 ...
T2058 000:070.131 - 0.508ms returns 32 (0x20)
T2058 000:070.136 JLINK_ReadMemU32(0xE0041FBC, 0x1 Items)
T2058 000:070.142   CPU_ReadMem(4 bytes @ 0xE0041FBC)
T2058 000:070.430   Data:  13 4A 72 47
T2058 000:070.436 - 0.301ms returns 1 (0x1)
T2058 000:070.441 JLINK_GetDebugInfo(0x102 = JLINKARM_DEBUG_INFO_MTB_ADDR_INDEX)
T2058 000:070.448   Value=0x00000000
T2058 000:070.485 - 0.046ms returns 0
T2058 000:070.489 JLINK_GetDebugInfo(0x103 = JLINKARM_DEBUG_INFO_TPIU_ADDR_INDEX)
T2058 000:070.493   Value=0xE0040000
T2058 000:070.498 - 0.010ms returns 0
T2058 000:070.502 JLINK_GetDebugInfo(0x104 = JLINKARM_DEBUG_INFO_ITM_ADDR_INDEX)
T2058 000:070.505   Value=0xE0000000
T2058 000:070.510 - 0.009ms returns 0
T2058 000:070.514 JLINK_GetDebugInfo(0x105 = JLINKARM_DEBUG_INFO_DWT_ADDR_INDEX)
T2058 000:070.518   Value=0xE0001000
T2058 000:070.522 - 0.009ms returns 0
T2058 000:070.526 JLINK_GetDebugInfo(0x106 = JLINKARM_DEBUG_INFO_FPB_ADDR_INDEX)
T2058 000:070.530   Value=0xE0002000
T2058 000:070.534 - 0.009ms returns 0
T2058 000:070.538 JLINK_GetDebugInfo(0x107 = JLINKARM_DEBUG_INFO_NVIC_ADDR_INDEX)
T2058 000:070.542   Value=0xE000E000
T2058 000:070.547 - 0.009ms returns 0
T2058 000:070.551 JLINK_GetDebugInfo(0x10C = JLINKARM_DEBUG_INFO_DBG_ADDR_INDEX)
T2058 000:070.554   Value=0xE000EDF0
T2058 000:070.559 - 0.009ms returns 0
T2058 000:070.563 JLINK_GetDebugInfo(0x01 = Unknown)
T2058 000:070.568   Value=0x00000001
T2058 000:070.572 - 0.011ms returns 0
T2058 000:070.576 JLINK_ReadMemU32(0xE000ED00, 0x1 Items)
T2058 000:070.582   CPU_ReadMem(4 bytes @ 0xE000ED00)
T2058 000:070.878   Data:  14 D2 0F 41
T2058 000:070.883   Debug reg: CPUID
T2058 000:070.888 - 0.313ms returns 1 (0x1)
T2058 000:070.893 JLINK_GetDebugInfo(0x10F = JLINKARM_DEBUG_INFO_HAS_CORTEX_M_SECURITY_EXT_INDEX)
T2058 000:070.897   Value=0x00000001
T2058 000:070.901 - 0.009ms returns 0
T2058 000:070.906 JLINK_ReadMemU32(0xE000EFB8, 0x1 Items)
T2058 000:070.911   CPU_ReadMem(4 bytes @ 0xE000EFB8)
T2058 000:071.182   Data:  FF 00 00 00
T2058 000:071.187 - 0.282ms returns 1 (0x1)
T2058 000:071.192 JLINK_ReadMemU32(0xE000EDF0, 0x1 Items)
T2058 000:071.196   CPU_ReadMem(4 bytes @ 0xE000EDF0)
T2058 000:071.480   Data:  01 00 10 01
T2058 000:071.486   Debug reg: DHCSR
T2058 000:071.490 - 0.300ms returns 1 (0x1)
T2058 000:071.495 JLINK_ReadMemU32(0xE000EE08, 0x1 Items)
T2058 000:071.500   CPU_ReadMem(4 bytes @ 0xE000EE08)
T2058 000:071.793   Data:  00 00 03 00
T2058 000:071.802   Debug reg: DSCSR
T2058 000:071.807 - 0.313ms returns 1 (0x1)
T2058 000:071.814 JLINK_HasError()
T2058 000:071.819 JLINK_SetResetType(JLINKARM_CM3_RESET_TYPE_NORMAL)
T2058 000:071.822 - 0.005ms returns JLINKARM_CM3_RESET_TYPE_NORMAL
T2058 000:071.827 JLINK_Reset()
T2058 000:071.838   CPU is running
T2058 000:071.844   CPU_WriteMem(4 bytes @ 0xE000EDF0)
T2058 000:072.210   CPU_ReadMem(4 bytes @ 0xE000ED44)
T2058 000:072.499   CPU_ReadMem(4 bytes @ 0xE000EE08)
T2058 000:072.781   CPU is running
T2058 000:072.787   CPU_WriteMem(4 bytes @ 0xE000EE08)
T2058 000:073.102   Reset: ARMv8M core with Security Extension enabled detected.
T2058 000:073.108   CPU is running
T2058 000:073.113   CPU_WriteMem(4 bytes @ 0xE000EDFC)
T2058 000:073.392   Reset: Halt core after reset via DEMCR.VC_CORERESET.
T2058 000:073.670   Reset: Reset device via AIRCR.SYSRESETREQ.
T2058 000:073.675   CPU is running
T2058 000:073.680   CPU_WriteMem(4 bytes @ 0xE000ED0C)
T2058 000:126.163   CPU_ReadMem(4 bytes @ 0xE000EDF0)
T2058 000:126.609   CPU_ReadMem(4 bytes @ 0xE000EDF0)
T2058 000:127.027   CPU is running
T2058 000:127.048   CPU_WriteMem(4 bytes @ 0xE000EDF0)
T2058 000:127.425   CPU is running
T2058 000:127.444   CPU_WriteMem(4 bytes @ 0xE000EDFC)
T2058 000:133.545   CPU_ReadMem(4 bytes @ 0xE000EDF0)
T2058 000:138.402   CPU_ReadMem(4 bytes @ 0xE000EE08)
T2058 000:138.856   CPU_WriteMem(4 bytes @ 0xE0002000)
T2058 000:139.303   CPU_ReadMem(4 bytes @ 0xE000EDFC)
T2058 000:139.749   CPU_ReadMem(4 bytes @ 0xE0001000)
T2058 000:140.229   CPU_ReadMem(4 bytes @ 0xE000EE08)
T2058 000:140.672 - 68.863ms
T2058 000:140.717 JLINK_HasError()
T2058 000:140.831 JLINK_ReadReg(R15 (PC))
T2058 000:140.862   CPU_ReadMem(4 bytes @ 0xE000EE08)
T2058 000:141.247 - 0.423ms returns 0x000004A0
T2058 000:141.267 JLINK_ReadReg(XPSR)
T2058 000:141.284 - 0.022ms returns 0xF9000000
T2058 000:141.300 JLINK_Halt()
T2058 000:141.311 - 0.017ms returns 0x00
T2058 000:141.330 JLINK_ReadMemU32(0xE000EFB8, 0x1 Items)
T2058 000:141.354   CPU_ReadMem(4 bytes @ 0xE000EFB8)
T2058 000:141.729   Data:  FF 00 00 00
T2058 000:141.748 - 0.423ms returns 1 (0x1)
T2058 000:141.765 JLINK_ReadMemU32(0xE000EDF0, 0x1 Items)
T2058 000:141.782   CPU_ReadMem(4 bytes @ 0xE000EDF0)
T2058 000:142.125   Data:  03 00 13 00
T2058 000:142.143   Debug reg: DHCSR
T2058 000:142.159 - 0.400ms returns 1 (0x1)
T2058 000:142.176 JLINK_ReadMemU32(0xE000EDF0, 0x1 Items)
T2058 000:142.193   CPU_ReadMem(4 bytes @ 0xE000EDF0)
T2058 000:142.607   Data:  03 00 13 00
T2058 000:142.634   Debug reg: DHCSR
T2058 000:142.651 - 0.480ms returns 1 (0x1)
T2058 000:142.679 JLINK_WriteU32_64(0xE000EDF0, 0xA05F0003)
T2058 000:142.697   Debug reg: DHCSR
T2058 000:143.304   CPU_WriteMem(4 bytes @ 0xE000EDF0)
T2058 000:143.683 - 1.013ms returns 0 (0x00000000)
T2058 000:143.705 JLINK_WriteU32_64(0xE000EDFC, 0x01000000)
T2058 000:143.716   Debug reg: DEMCR
T2058 000:143.743   CPU_WriteMem(4 bytes @ 0xE000EDFC)
T2058 000:144.142 - 0.446ms returns 0 (0x00000000)
T2058 000:144.216 JLINK_GetHWStatus(...)
T2058 000:144.425 - 0.215ms returns 0
T2058 000:144.472 JLINK_GetNumBPUnits(Type = 0xFFFFFF00)
T2058 000:144.484 - 0.018ms returns 0x08
T2058 000:144.498 JLINK_GetNumBPUnits(Type = 0xF0)
T2058 000:144.509 - 0.016ms returns 0x2000
T2058 000:144.522 JLINK_GetNumWPUnits()
T2058 000:144.533 - 0.016ms returns 4
T2058 000:144.565 JLINK_GetSpeed()
T2058 000:144.576 - 0.016ms returns 2000
T2058 000:144.601 JLINK_ReadMemU32(0xE000E004, 0x1 Items)
T2058 000:144.617   CPU_ReadMem(4 bytes @ 0xE000E004)
T2058 000:144.978   Data:  04 00 00 00
T2058 000:144.994 - 0.398ms returns 1 (0x1)
T2058 000:145.010 JLINK_ReadMemU32(0xE000E004, 0x1 Items)
T2058 000:145.024   CPU_ReadMem(4 bytes @ 0xE000E004)
T2058 000:145.374   Data:  04 00 00 00
T2058 000:145.391 - 0.386ms returns 1 (0x1)
T2058 000:145.406 JLINK_WriteMemEx(0xE0001000, 0x0000001C Bytes, Flags = 0x02000004)
T2058 000:145.419   Data:  01 00 00 00 00 00 00 00 00 00 00 00 00 00 00 00 ...
T2058 000:145.442   CPU_WriteMem(28 bytes @ 0xE0001000)
T2058 000:145.960 - 0.560ms returns 0x1C
T2058 000:145.976 JLINK_ReadMemU32(0xE000EFB8, 0x1 Items)
T2058 000:145.990   CPU_ReadMem(4 bytes @ 0xE000EFB8)
T2058 000:146.356   Data:  FF 00 00 00
T2058 000:146.372 - 0.400ms returns 1 (0x1)
T2058 000:146.386 JLINK_ReadMemU32(0xE000EDF0, 0x1 Items)
T2058 000:146.399   CPU_ReadMem(4 bytes @ 0xE000EDF0)
T2058 000:146.757   Data:  03 00 13 00
T2058 000:146.772   Debug reg: DHCSR
T2058 000:146.786 - 0.404ms returns 1 (0x1)
T2058 000:146.800 JLINK_HasError()
T2058 000:146.813 JLINK_ReadReg(R15 (PC))
T2058 000:146.827 - 0.018ms returns 0x000004A0
T2058 000:146.840 JLINK_ReadReg(XPSR)
T2058 000:146.851 - 0.016ms returns 0xF9000000
T2058 000:147.087 JLINK_ReadMemU32(0xE000EE08, 0x1 Items)
T2058 000:147.101   Data:  00 00 03 00
T2058 000:147.115   Debug reg: DSCSR
T2058 000:147.129 - 0.046ms returns 1 (0x1)
T2058 000:147.141 JLINK_ReadMemU32(0xE000EFB8, 0x1 Items)
T2058 000:147.153   CPU_ReadMem(4 bytes @ 0xE000EFB8)
T2058 000:147.500   Data:  FF 00 00 00
T2058 000:147.515 - 0.378ms returns 1 (0x1)
T2058 000:147.528 JLINK_ReadMemU32(0xE000EDF0, 0x1 Items)
T2058 000:147.540   CPU_ReadMem(4 bytes @ 0xE000EDF0)
T2058 000:147.893   Data:  03 00 13 00
T2058 000:147.907   Debug reg: DHCSR
T2058 000:147.919 - 0.395ms returns 1 (0x1)
T2058 000:147.948 JLINK_ReadMemU32(0xE000EE08, 0x1 Items)
T2058 000:147.962   Data:  00 00 03 00
T2058 000:147.976   Debug reg: DSCSR
T2058 000:147.988 - 0.045ms returns 1 (0x1)
T2058 000:148.000 JLINK_ReadMemU32(0xE000EFB8, 0x1 Items)
T2058 000:148.011   CPU_ReadMem(4 bytes @ 0xE000EFB8)
T2058 000:148.355   Data:  FF 00 00 00
T2058 000:148.369 - 0.373ms returns 1 (0x1)
T2058 000:148.381 JLINK_ReadMemU32(0xE000EDF0, 0x1 Items)
T2058 000:148.394   CPU_ReadMem(4 bytes @ 0xE000EDF0)
T2058 000:148.741   Data:  03 00 13 00
T2058 000:148.754   Debug reg: DHCSR
T2058 000:148.766 - 0.388ms returns 1 (0x1)
T2058 000:148.780 JLINK_ReadMemU32(0xE000EE08, 0x1 Items)
T2058 000:148.796   Data:  00 00 03 00
T2058 000:148.809   Debug reg: DSCSR
T2058 000:148.820 - 0.044ms returns 1 (0x1)
T2058 000:148.831 JLINK_ReadMemU32(0xE000EFB8, 0x1 Items)
T2058 000:148.841   CPU_ReadMem(4 bytes @ 0xE000EFB8)
T2058 000:149.177   Data:  FF 00 00 00
T2058 000:149.190 - 0.363ms returns 1 (0x1)
T2058 000:149.202 JLINK_ReadMemU32(0xE000EDF0, 0x1 Items)
T2058 000:149.214   CPU_ReadMem(4 bytes @ 0xE000EDF0)
T2058 000:149.566   Data:  03 00 13 00
T2058 000:149.580   Debug reg: DHCSR
T2058 000:149.591 - 0.392ms returns 1 (0x1)
T2058 000:149.605 JLINK_ReadMemU32(0xE000EE08, 0x1 Items)
T2058 000:149.615   Data:  00 00 03 00
T2058 000:149.627   Debug reg: DSCSR
T2058 000:149.643 - 0.042ms returns 1 (0x1)
T2058 000:149.653 JLINK_ReadMemU32(0xE000EFB8, 0x1 Items)
T2058 000:149.663   CPU_ReadMem(4 bytes @ 0xE000EFB8)
T2058 000:149.995   Data:  FF 00 00 00
T2058 000:150.008 - 0.358ms returns 1 (0x1)
T2058 000:150.019 JLINK_ReadMemU32(0xE000EDF0, 0x1 Items)
T2058 000:150.029   CPU_ReadMem(4 bytes @ 0xE000EDF0)
T2058 000:150.363   Data:  03 00 13 00
T2058 000:150.376   Debug reg: DHCSR
T2058 000:150.387 - 0.372ms returns 1 (0x1)
T2058 000:150.400 JLINK_ReadMemU32(0xE000EE08, 0x1 Items)
T2058 000:150.410   Data:  00 00 03 00
T2058 000:150.422   Debug reg: DSCSR
T2058 000:150.433 - 0.037ms returns 1 (0x1)
T2058 000:150.443 JLINK_ReadMemU32(0xE000EFB8, 0x1 Items)
T2058 000:150.453   CPU_ReadMem(4 bytes @ 0xE000EFB8)
T2058 000:150.784   Data:  FF 00 00 00
T2058 000:150.795 - 0.356ms returns 1 (0x1)
T2058 000:150.806 JLINK_ReadMemU32(0xE000EDF0, 0x1 Items)
T2058 000:150.816   CPU_ReadMem(4 bytes @ 0xE000EDF0)
T2058 000:151.142   Data:  03 00 13 00
T2058 000:151.154   Debug reg: DHCSR
T2058 000:151.164 - 0.362ms returns 1 (0x1)
T2058 000:151.177 JLINK_ReadMemU32(0xE000EE08, 0x1 Items)
T2058 000:151.186   Data:  00 00 03 00
T2058 000:151.197   Debug reg: DSCSR
T2058 000:151.207 - 0.034ms returns 1 (0x1)
T2058 000:151.217 JLINK_ReadMemU32(0xE000EFB8, 0x1 Items)
T2058 000:151.226   CPU_ReadMem(4 bytes @ 0xE000EFB8)
T2058 000:151.560   Data:  FF 00 00 00
T2058 000:151.572 - 0.358ms returns 1 (0x1)
T2058 000:151.582 JLINK_ReadMemU32(0xE000EDF0, 0x1 Items)
T2058 000:151.592   CPU_ReadMem(4 bytes @ 0xE000EDF0)
T2058 000:151.949   Data:  03 00 13 00
T2058 000:151.968   Debug reg: DHCSR
T2058 000:151.979 - 0.400ms returns 1 (0x1)
T2058 000:152.002 JLINK_ReadMemU32(0xE000EE08, 0x1 Items)
T2058 000:152.018   Data:  00 00 03 00
T2058 000:152.030   Debug reg: DSCSR
T2058 000:152.063 - 0.065ms returns 1 (0x1)
T2058 000:152.074 JLINK_ReadMemU32(0xE000EFB8, 0x1 Items)
T2058 000:152.085   CPU_ReadMem(4 bytes @ 0xE000EFB8)
T2058 000:152.432   Data:  FF 00 00 00
T2058 000:152.444 - 0.374ms returns 1 (0x1)
T2058 000:152.455 JLINK_ReadMemU32(0xE000EDF0, 0x1 Items)
T2058 000:152.465   CPU_ReadMem(4 bytes @ 0xE000EDF0)
T2058 000:152.804   Data:  03 00 13 00
T2058 000:152.823   Debug reg: DHCSR
T2058 000:152.833 - 0.381ms returns 1 (0x1)
T2058 000:152.849 JLINK_ReadMemU32(0xE000EE08, 0x1 Items)
T2058 000:152.863   Data:  00 00 03 00
T2058 000:152.872   Debug reg: DSCSR
T2058 000:152.882 - 0.036ms returns 1 (0x1)
T2058 000:152.890 JLINK_ReadMemU32(0xE000EFB8, 0x1 Items)
T2058 000:152.900   CPU_ReadMem(4 bytes @ 0xE000EFB8)
T2058 000:153.226   Data:  FF 00 00 00
T2058 000:153.236 - 0.349ms returns 1 (0x1)
T2058 000:153.246 JLINK_ReadMemU32(0xE000EDF0, 0x1 Items)
T2058 000:153.255   CPU_ReadMem(4 bytes @ 0xE000EDF0)
T2058 000:153.574   Data:  03 00 13 00
T2058 000:153.585   Debug reg: DHCSR
T2058 000:153.594 - 0.351ms returns 1 (0x1)
T2058 000:153.606 JLINK_ReadMemU32(0xE000EE08, 0x1 Items)
T2058 000:153.615   Data:  00 00 03 00
T2058 000:153.624   Debug reg: DSCSR
T2058 000:153.634 - 0.031ms returns 1 (0x1)
T2058 000:153.642 JLINK_ReadMemU32(0xE000EFB8, 0x1 Items)
T2058 000:153.652   CPU_ReadMem(4 bytes @ 0xE000EFB8)
T2058 000:153.968   Data:  FF 00 00 00
T2058 000:153.977 - 0.338ms returns 1 (0x1)
T2058 000:153.985 JLINK_ReadMemU32(0xE000EDF0, 0x1 Items)
T2058 000:153.997   CPU_ReadMem(4 bytes @ 0xE000EDF0)
T2058 000:154.336   Data:  03 00 13 00
T2058 000:154.345   Debug reg: DHCSR
T2058 000:154.353 - 0.370ms returns 1 (0x1)
T2058 000:154.363 JLINK_ReadMemU32(0xE000EE08, 0x1 Items)
T2058 000:154.371   Data:  00 00 03 00
T2058 000:154.379   Debug reg: DSCSR
T2058 000:154.387 - 0.027ms returns 1 (0x1)
T2058 000:154.394 JLINK_ReadMemU32(0xE000EFB8, 0x1 Items)
T2058 000:154.401   CPU_ReadMem(4 bytes @ 0xE000EFB8)
T2058 000:154.714   Data:  FF 00 00 00
T2058 000:154.723 - 0.331ms returns 1 (0x1)
T2058 000:154.731 JLINK_ReadMemU32(0xE000EDF0, 0x1 Items)
T2058 000:154.739   CPU_ReadMem(4 bytes @ 0xE000EDF0)
T2058 000:155.111   Data:  03 00 13 00
T2058 000:155.122   Debug reg: DHCSR
T2058 000:155.130 - 0.402ms returns 1 (0x1)
T2058 000:155.141 JLINK_ReadMemU32(0xE000EE08, 0x1 Items)
T2058 000:155.149   Data:  00 00 03 00
T2058 000:155.158   Debug reg: DSCSR
T2058 000:155.166 - 0.027ms returns 1 (0x1)
T2058 000:155.173 JLINK_ReadMemU32(0xE000EFB8, 0x1 Items)
T2058 000:155.180   CPU_ReadMem(4 bytes @ 0xE000EFB8)
T2058 000:155.517   Data:  FF 00 00 00
T2058 000:155.530 - 0.360ms returns 1 (0x1)
T2058 000:155.540 JLINK_ReadMemU32(0xE000EDF0, 0x1 Items)
T2058 000:155.549   CPU_ReadMem(4 bytes @ 0xE000EDF0)
T2058 000:155.865   Data:  03 00 13 00
T2058 000:155.875   Debug reg: DHCSR
T2058 000:155.883 - 0.345ms returns 1 (0x1)
T2058 000:155.894 JLINK_ReadMemU32(0xE000EE08, 0x1 Items)
T2058 000:155.902   Data:  00 00 03 00
T2058 000:155.910   Debug reg: DSCSR
T2058 000:155.918 - 0.027ms returns 1 (0x1)
T2058 000:155.925 JLINK_ReadMemU32(0xE000EFB8, 0x1 Items)
T2058 000:155.933   CPU_ReadMem(4 bytes @ 0xE000EFB8)
T2058 000:156.241   Data:  FF 00 00 00
T2058 000:156.249 - 0.326ms returns 1 (0x1)
T2058 000:156.257 JLINK_ReadMemU32(0xE000EDF0, 0x1 Items)
T2058 000:156.265   CPU_ReadMem(4 bytes @ 0xE000EDF0)
T2058 000:156.560   Data:  03 00 13 00
T2058 000:156.569   Debug reg: DHCSR
T2058 000:156.577 - 0.322ms returns 1 (0x1)
T2058 000:156.586 JLINK_ReadMemU32(0xE000EE08, 0x1 Items)
T2058 000:156.593   Data:  00 00 03 00
T2058 000:156.601   Debug reg: DSCSR
T2058 000:156.609 - 0.026ms returns 1 (0x1)
T2058 000:156.616 JLINK_ReadMemU32(0xE000EFB8, 0x1 Items)
T2058 000:156.623   CPU_ReadMem(4 bytes @ 0xE000EFB8)
T2058 000:156.923   Data:  FF 00 00 00
T2058 000:156.931 - 0.318ms returns 1 (0x1)
T2058 000:156.939 JLINK_ReadMemU32(0xE000EDF0, 0x1 Items)
T2058 000:156.948   CPU_ReadMem(4 bytes @ 0xE000EDF0)
T2058 000:157.240   Data:  03 00 13 00
T2058 000:157.249   Debug reg: DHCSR
T2058 000:157.256 - 0.319ms returns 1 (0x1)
T2058 000:157.265 JLINK_ReadMemU32(0xE000EE08, 0x1 Items)
T2058 000:157.272   Data:  00 00 03 00
T2058 000:157.280   Debug reg: DSCSR
T2058 000:157.287 - 0.024ms returns 1 (0x1)
T2058 000:157.294 JLINK_ReadMemU32(0xE000EFB8, 0x1 Items)
T2058 000:157.300   CPU_ReadMem(4 bytes @ 0xE000EFB8)
T2058 000:157.613   Data:  FF 00 00 00
T2058 000:157.621 - 0.330ms returns 1 (0x1)
T2058 000:157.629 JLINK_ReadMemU32(0xE000EDF0, 0x1 Items)
T2058 000:157.636   CPU_ReadMem(4 bytes @ 0xE000EDF0)
T2058 000:157.930   Data:  03 00 13 00
T2058 000:157.939   Debug reg: DHCSR
T2058 000:157.946 - 0.320ms returns 1 (0x1)
T2058 000:157.955 JLINK_ReadMemU32(0xE000EE08, 0x1 Items)
T2058 000:157.962   Data:  00 00 03 00
T2058 000:157.969   Debug reg: DSCSR
T2058 000:157.977 - 0.024ms returns 1 (0x1)
T2058 000:157.983 JLINK_ReadMemU32(0xE000EFB8, 0x1 Items)
T2058 000:157.990   CPU_ReadMem(4 bytes @ 0xE000EFB8)
T2058 000:158.333   Data:  FF 00 00 00
T2058 000:158.341 - 0.360ms returns 1 (0x1)
T2058 000:158.349 JLINK_ReadMemU32(0xE000EDF0, 0x1 Items)
T2058 000:158.356   CPU_ReadMem(4 bytes @ 0xE000EDF0)
T2058 000:158.660   Data:  03 00 13 00
T2058 000:158.668   Debug reg: DHCSR
T2058 000:158.676 - 0.329ms returns 1 (0x1)
T2058 000:158.685 JLINK_ReadMemU32(0xE000EE08, 0x1 Items)
T2058 000:158.692   Data:  00 00 03 00
T2058 000:158.700   Debug reg: DSCSR
T2058 000:158.707 - 0.025ms returns 1 (0x1)
T2058 000:158.715 JLINK_ReadMemU32(0xE000EFB8, 0x1 Items)
T2058 000:158.723   CPU_ReadMem(4 bytes @ 0xE000EFB8)
T2058 000:159.020   Data:  FF 00 00 00
T2058 000:159.028 - 0.315ms returns 1 (0x1)
T2058 000:159.035 JLINK_ReadMemU32(0xE000EDF0, 0x1 Items)
T2058 000:159.042   CPU_ReadMem(4 bytes @ 0xE000EDF0)
T2058 000:159.335   Data:  03 00 13 00
T2058 000:159.343   Debug reg: DHCSR
T2058 000:159.350 - 0.318ms returns 1 (0x1)
T2058 000:159.359 JLINK_ReadMemU32(0xE000EE08, 0x1 Items)
T2058 000:159.366   Data:  00 00 03 00
T2058 000:159.373   Debug reg: DSCSR
T2058 000:159.380 - 0.023ms returns 1 (0x1)
T2058 000:159.386 JLINK_ReadMemU32(0xE000EFB8, 0x1 Items)
T2058 000:159.393   CPU_ReadMem(4 bytes @ 0xE000EFB8)
T2058 000:159.689   Data:  FF 00 00 00
T2058 000:159.696 - 0.312ms returns 1 (0x1)
T2058 000:159.704 JLINK_ReadMemU32(0xE000EDF0, 0x1 Items)
